
T56BC 000:359 SEGGER J-Link V4.98e Log File (0001ms, 0268ms total)
T56BC 000:359 DLL Compiled: May  5 2015 11:00:52 (0001ms, 0268ms total)
T56BC 000:359 Logging started @ 2018-09-05 22:48 (0001ms, 0268ms total)
T56BC 000:360 JLINK_SetWarnOutHandler(...) (0000ms, 0268ms total)
T56BC 000:360 JLINK_OpenEx(...)
Firmware: J-Link ARM V8 compiled Jan 31 2018 18:34:52
Hardware: V8.00
S/N: 20080643
Feature(s): RDI,FlashDL,FlashBP,JFlash,GDBFull  returns O.K. (0263ms, 0531ms total)
T56BC 000:623 JLINK_SetErrorOutHandler(...) (0000ms, 0531ms total)
T56BC 000:623 JLINK_ExecCommand("ProjectFile = "D:\ProjectFile\JBY\CISProgram\A9\JLinkSettings.ini"", ...)Device "UNSPECIFIED" selected.  returns 0x00 (0001ms, 0532ms total)
T56BC 000:624 JLINK_ExecCommand("Device = GD32F105RG", ...)Device "UNSPECIFIED" selected.  returns 0x00 (0001ms, 0533ms total)
T56BC 000:625 JLINK_ExecCommand("DisableConnectionTimeout", ...)  returns 0x01 (0000ms, 0533ms total)
T56BC 000:625 JLINK_GetHardwareVersion()  returns 0x13880 (0000ms, 0533ms total)
T56BC 000:625 JLINK_GetDLLVersion()  returns 49805 (0000ms, 0533ms total)
T56BC 000:625 JLINK_GetFirmwareString(...) (0000ms, 0533ms total)
T56BC 000:625 JLINK_GetDLLVersion()  returns 49805 (0000ms, 0533ms total)
T56BC 000:626 JLINK_GetCompileDateTime() (0000ms, 0534ms total)
T56BC 000:626 JLINK_GetFirmwareString(...) (0000ms, 0534ms total)
T56BC 000:626 JLINK_GetHardwareVersion()  returns 0x13880 (0000ms, 0534ms total)
T56BC 000:627 JLINK_TIF_Select(JLINKARM_TIF_SWD)  returns 0x00 (0001ms, 0535ms total)
T56BC 000:628 JLINK_SetSpeed(5000) (0000ms, 0535ms total)
T56BC 000:628 JLINK_GetId() >0x108 TIF>Found SWD-DP with ID 0x1BA01477 >0x0D TIF> >0x21 TIF> >0x0D TIF> >0x28 TIF> >0x0D TIF> >0x28 TIF> >0x0D TIF> >0x21 TIF> >0x0D TIF> >0x28 TIF> >0x0D TIF> >0x21 TIF> >0x0D TIF> >0x21 TIF> >0x0D TIF> >0x21 TIF> >0x0D TIF> >0x28 TIF> >0x0D TIF> >0x21 TIF> >0x0D TIF> >0x28 TIF> >0x0D TIF> >0x28 TIF> >0x0D TIF> >0x21 TIF> >0x0D TIF> >0x28 TIF> >0x0D TIF> >0x28 TIF> >0x0D TIF> >0x28 TIF> >0x0D TIF> >0x21 TIF> >0x0D TIF> >0x21 TIF> >0x0D TIF> >0x28 TIF> >0x0D TIF>
 >0x21 TIF> >0x0D TIF> >0x21 TIF>Found Cortex-M3 r2p1, Little endian. >0x0D TIF> >0x28 TIF> -- CPU_WriteMem(4 bytes @ 0xE0002000) -- CPU_ReadMem(4 bytes @ 0xE000EDF0) -- CPU_ReadMem(4 bytes @ 0xE0002000)FPUnit: 6 code (BP) slots and 2 literal slots -- CPU_ReadMem(4 bytes @ 0xE000EDFC) -- CPU_ReadMem(4 bytes @ 0xE0001000) -- CPU_WriteMem(4 bytes @ 0xE0001000) -- CPU_ReadMem(4 bytes @ 0xE000ED88) -- CPU_WriteMem(4 bytes @ 0xE000ED88) -- CPU_ReadMem(4 bytes @ 0xE000ED88)
 -- CPU_WriteMem(4 bytes @ 0xE000ED88)CoreSight components:ROMTbl 0 @ E00FF000 -- CPU_ReadMem(16 bytes @ 0xE00FF000) -- CPU_ReadMem(16 bytes @ 0xE000EFF0) -- CPU_ReadMem(16 bytes @ 0xE000EFE0)ROMTbl 0 [0]: FFF0F000, CID: B105E00D, PID: 000BB000 SCS -- CPU_ReadMem(16 bytes @ 0xE0001FF0) -- CPU_ReadMem(16 bytes @ 0xE0001FE0)ROMTbl 0 [1]: FFF02000, CID: B105E00D, PID: 003BB002 DWT -- CPU_ReadMem(16 bytes @ 0xE0002FF0) -- CPU_ReadMem(16 bytes @ 0xE0002FE0)
ROMTbl 0 [2]: FFF03000, CID: B105E00D, PID: 002BB003 FPB -- CPU_ReadMem(16 bytes @ 0xE0000FF0) -- CPU_ReadMem(16 bytes @ 0xE0000FE0)ROMTbl 0 [3]: FFF01000, CID: B105E00D, PID: 003BB001 ITM -- CPU_ReadMem(16 bytes @ 0xE00FF010) -- CPU_ReadMem(16 bytes @ 0xE0040FF0) -- CPU_ReadMem(16 bytes @ 0xE0040FE0)ROMTbl 0 [4]: FFF41000, CID: B105900D, PID: 003BB923 TPIU-Lite -- CPU_ReadMem(16 bytes @ 0xE0041FF0) -- CPU_ReadMem(16 bytes @ 0xE0041FE0)ROMTbl 0 [5]: FFF42000, CID: B105900D, PID: 003BB924 ETM-M3
 >0x0D TIF> >0x21 TIF>  returns 0x1BA01477 (0033ms, 0568ms total)
T56BC 000:661 JLINK_GetDLLVersion()  returns 49805 (0000ms, 0568ms total)
T56BC 000:661 JLINK_CORE_GetFound()  returns 0x30000FF (0000ms, 0568ms total)
T56BC 000:661 JLINK_GetDebugInfo(0x100) -- Value=0xE00FF003  returns 0x00 (0000ms, 0568ms total)
T56BC 000:661 JLINK_ReadMem (0xE00FF000, 0x0020 Bytes, ...) -- CPU is running -- CPU_ReadMem(32 bytes @ 0xE00FF000) - Data: 03 F0 F0 FF 03 20 F0 FF 03 30 F0 FF 03 10 F0 FF ...  returns 0x00 (0001ms, 0569ms total)
T56BC 000:662 JLINK_ReadMem (0xE000EFF0, 0x0010 Bytes, ...) -- CPU is running -- CPU_ReadMem(16 bytes @ 0xE000EFF0) - Data: 0D 00 00 00 E0 00 00 00 05 00 00 00 B1 00 00 00  returns 0x00 (0000ms, 0569ms total)
T56BC 000:662 JLINK_ReadMem (0xE000EFD0, 0x0020 Bytes, ...) -- CPU is running -- CPU_ReadMem(32 bytes @ 0xE000EFD0) - Data: 04 00 00 00 00 00 00 00 00 00 00 00 00 00 00 00 ...  returns 0x00 (0001ms, 0570ms total)
T56BC 000:663 JLINK_ReadMem (0xE0001FF0, 0x0010 Bytes, ...) -- CPU is running -- CPU_ReadMem(16 bytes @ 0xE0001FF0) - Data: 0D 00 00 00 E0 00 00 00 05 00 00 00 B1 00 00 00  returns 0x00 (0001ms, 0571ms total)
T56BC 000:664 JLINK_ReadMem (0xE0001FD0, 0x0020 Bytes, ...) -- CPU is running -- CPU_ReadMem(32 bytes @ 0xE0001FD0) - Data: 04 00 00 00 00 00 00 00 00 00 00 00 00 00 00 00 ...  returns 0x00 (0000ms, 0571ms total)
T56BC 000:664 JLINK_ReadMem (0xE0002FF0, 0x0010 Bytes, ...) -- CPU is running -- CPU_ReadMem(16 bytes @ 0xE0002FF0) - Data: 0D 00 00 00 E0 00 00 00 05 00 00 00 B1 00 00 00  returns 0x00 (0001ms, 0572ms total)
T56BC 000:665 JLINK_ReadMem (0xE0002FD0, 0x0020 Bytes, ...) -- CPU is running -- CPU_ReadMem(32 bytes @ 0xE0002FD0) - Data: 04 00 00 00 00 00 00 00 00 00 00 00 00 00 00 00 ...  returns 0x00 (0000ms, 0572ms total)
T56BC 000:665 JLINK_ReadMem (0xE0000FF0, 0x0010 Bytes, ...) -- CPU is running -- CPU_ReadMem(16 bytes @ 0xE0000FF0) - Data: 0D 00 00 00 E0 00 00 00 05 00 00 00 B1 00 00 00  returns 0x00 (0001ms, 0573ms total)
T56BC 000:666 JLINK_ReadMem (0xE0000FD0, 0x0020 Bytes, ...) -- CPU is running -- CPU_ReadMem(32 bytes @ 0xE0000FD0) - Data: 04 00 00 00 00 00 00 00 00 00 00 00 00 00 00 00 ...  returns 0x00 (0001ms, 0574ms total)
T56BC 000:667 JLINK_ReadMem (0xE0040FF0, 0x0010 Bytes, ...) -- CPU is running -- CPU_ReadMem(16 bytes @ 0xE0040FF0) - Data: 0D 00 00 00 90 00 00 00 05 00 00 00 B1 00 00 00  returns 0x00 (0000ms, 0574ms total)
T56BC 000:667 JLINK_ReadMem (0xE0040FD0, 0x0020 Bytes, ...) -- CPU is running -- CPU_ReadMem(32 bytes @ 0xE0040FD0) - Data: 04 00 00 00 00 00 00 00 00 00 00 00 00 00 00 00 ...  returns 0x00 (0001ms, 0575ms total)
T56BC 000:668 JLINK_ReadMem (0xE0041FF0, 0x0010 Bytes, ...) -- CPU is running -- CPU_ReadMem(16 bytes @ 0xE0041FF0) - Data: 0D 00 00 00 90 00 00 00 05 00 00 00 B1 00 00 00  returns 0x00 (0000ms, 0575ms total)
T56BC 000:668 JLINK_ReadMem (0xE0041FD0, 0x0020 Bytes, ...) -- CPU is running -- CPU_ReadMem(32 bytes @ 0xE0041FD0) - Data: 04 00 00 00 00 00 00 00 00 00 00 00 00 00 00 00 ...  returns 0x00 (0001ms, 0576ms total)
T56BC 000:669 JLINK_ReadMemU32(0xE000ED00, 0x0001 Items, ...) -- CPU is running -- CPU_ReadMem(4 bytes @ 0xE000ED00) - Data: 31 C2 2F 41  returns 0x01 (0000ms, 0576ms total)
T56BC 000:669 JLINK_SetResetType(JLINKARM_RESET_TYPE_NORMAL)  returns JLINKARM_RESET_TYPE_NORMAL (0000ms, 0576ms total)
T56BC 000:669 JLINK_Reset() -- CPU_WriteMem(4 bytes @ 0xE0002000) -- CPU_ReadMem(4 bytes @ 0xE000EDFC) -- CPU_WriteMem(4 bytes @ 0xE000EDFC) -- CPU_ReadMem(4 bytes @ 0xE0001000) (0013ms, 0589ms total)
T56BC 000:682 JLINK_ReadReg(R15 (PC))  returns 0x08009A4C (0000ms, 0589ms total)
T56BC 000:682 JLINK_ReadReg(XPSR)  returns 0x01000000 (0000ms, 0589ms total)
T56BC 000:682 JLINK_Halt()  returns 0x00 (0000ms, 0589ms total)
T56BC 000:682 JLINK_IsHalted()  returns TRUE (0000ms, 0589ms total)
T56BC 000:682 JLINK_ReadMemU32(0xE000EDF0, 0x0001 Items, ...) -- CPU_ReadMem(4 bytes @ 0xE000EDF0) - Data: 03 00 03 00  returns 0x01 (0001ms, 0590ms total)
T56BC 000:683 JLINK_WriteU32(0xE000EDF0, 0xA05F0003) -- CPU_WriteMem(4 bytes @ 0xE000EDF0)  returns 0x00 (0001ms, 0591ms total)
T56BC 000:684 JLINK_WriteU32(0xE000EDFC, 0x01000000) -- CPU_WriteMem(4 bytes @ 0xE000EDFC)  returns 0x00 (0000ms, 0591ms total)
T56BC 000:690 JLINK_GetHWStatus(...)  returns 0x00 (0001ms, 0592ms total)
T56BC 000:692 JLINK_GetNumBPUnits(Type = 0xFFFFFF00)  returns 0x06 (0000ms, 0592ms total)
T56BC 000:692 JLINK_GetNumBPUnits(Type = 0xF0)  returns 0x2000 (0000ms, 0592ms total)
T56BC 000:692 JLINK_GetNumWPUnits()  returns 0x04 (0000ms, 0592ms total)
T56BC 000:693 JLINK_GetSpeed()  returns 0xFA0 (0000ms, 0592ms total)
T56BC 000:694 JLINK_ReadMemU32(0xE000E004, 0x0001 Items, ...) -- CPU_ReadMem(4 bytes @ 0xE000E004) - Data: 02 00 00 00  returns 0x01 (0001ms, 0593ms total)
T56BC 000:695 JLINK_ReadMemU32(0xE000E004, 0x0001 Items, ...) -- CPU_ReadMem(4 bytes @ 0xE000E004) - Data: 02 00 00 00  returns 0x01 (0000ms, 0593ms total)
T56BC 000:695 JLINK_WriteMem(0xE0001000, 0x001C Bytes, ...) - Data: 01 00 00 00 00 00 00 00 00 00 00 00 00 00 00 00 ... -- CPU_WriteMem(28 bytes @ 0xE0001000)  returns 0x1C (0002ms, 0595ms total)
T56BC 000:697 JLINK_ReadMem (0xE0001000, 0x001C Bytes, ...) -- CPU_ReadMem(28 bytes @ 0xE0001000) - Data: 01 00 00 40 00 00 00 00 00 00 00 00 00 00 00 00 ...  returns 0x00 (0000ms, 0595ms total)
T56BC 000:697 JLINK_ReadReg(R15 (PC))  returns 0x08009A4C (0000ms, 0595ms total)
T56BC 000:697 JLINK_ReadReg(XPSR)  returns 0x01000000 (0000ms, 0595ms total)
T56BC 000:961 JLINK_SetResetType(JLINKARM_RESET_TYPE_NORMAL)  returns JLINKARM_RESET_TYPE_NORMAL (0000ms, 0595ms total)
T56BC 000:961 JLINK_Reset() -- CPU_WriteMem(4 bytes @ 0xE0002000) -- CPU_ReadMem(4 bytes @ 0xE000EDFC) -- CPU_WriteMem(4 bytes @ 0xE000EDFC) -- CPU_ReadMem(4 bytes @ 0xE0001000) (0012ms, 0607ms total)
T56BC 000:973 JLINK_ReadReg(R15 (PC))  returns 0x08009A4C (0000ms, 0607ms total)
T56BC 000:973 JLINK_ReadReg(XPSR)  returns 0x01000000 (0000ms, 0607ms total)
T56BC 000:973 JLINK_ReadMem (0x08009A4C, 0x003C Bytes, ...) -- CPU_ReadMem(60 bytes @ 0x08009A4C) - Data: 09 48 80 47 09 48 00 47 FE E7 FE E7 FE E7 FE E7 ...  returns 0x00 (0001ms, 0608ms total)
T56BC 005:353 JLINK_ReadMem (0x200001EF, 0x0001 Bytes, ...) -- CPU_ReadMem(1 bytes @ 0x200001EF) - Data: 00  returns 0x00 (0001ms, 0609ms total)
T56BC 005:357 JLINK_ReadMem (0x200001F6, 0x0001 Bytes, ...) -- CPU_ReadMem(1 bytes @ 0x200001F6) - Data: 00  returns 0x00 (0001ms, 0610ms total)
T56BC 005:370 JLINK_ReadMem (0x200095CC, 0x0015 Bytes, ...) -- CPU_ReadMem(21 bytes @ 0x200095CC) - Data: 00 00 00 00 00 00 00 00 00 00 00 00 00 00 00 00 ...  returns 0x00 (0000ms, 0610ms total)
T3B80 005:466 JLINK_SetBPEx(Addr = 0x08003AA4, Type = 0xFFFFFFF2)  returns 0x00000001 (0000ms, 0610ms total)
T3B80 005:466 JLINK_SetBPEx(Addr = 0x08003A18, Type = 0xFFFFFFF2)  returns 0x00000002 (0001ms, 0611ms total)
T3B80 005:467 JLINK_Go() -- CPU_WriteMem(4 bytes @ 0xE0002000) -- CPU_WriteMem(4 bytes @ 0xE0002000) -- CPU_ReadMem(4 bytes @ 0xE0001000) -- CPU_WriteMem(4 bytes @ 0xE0002008) -- CPU_WriteMem(4 bytes @ 0xE000200C) -- CPU_WriteMem(4 bytes @ 0xE0002010) -- CPU_WriteMem(4 bytes @ 0xE0002014) -- CPU_WriteMem(4 bytes @ 0xE0002018) -- CPU_WriteMem(4 bytes @ 0xE000201C) -- CPU_WriteMem(4 bytes @ 0xE0001004) (0004ms, 0615ms total)
T3B80 005:571 JLINK_IsHalted()  returns TRUE (0002ms, 0617ms total)
T3B80 005:573 JLINK_Halt()  returns 0x00 (0000ms, 0615ms total)
T3B80 005:573 JLINK_IsHalted()  returns TRUE (0000ms, 0615ms total)
T3B80 005:573 JLINK_IsHalted()  returns TRUE (0000ms, 0615ms total)
T3B80 005:573 JLINK_IsHalted()  returns TRUE (0000ms, 0615ms total)
T3B80 005:573 JLINK_ReadReg(R15 (PC))  returns 0x08003AA4 (0000ms, 0615ms total)
T3B80 005:573 JLINK_ReadReg(XPSR)  returns 0x21000000 (0000ms, 0615ms total)
T3B80 005:573 JLINK_ClrBPEx(BPHandle = 0x00000001)  returns 0x00 (0000ms, 0615ms total)
T3B80 005:573 JLINK_ClrBPEx(BPHandle = 0x00000002)  returns 0x00 (0000ms, 0615ms total)
T3B80 005:573 JLINK_ReadMemU32(0xE000ED30, 0x0001 Items, ...) -- CPU_ReadMem(4 bytes @ 0xE000ED30) - Data: 03 00 00 00  returns 0x01 (0001ms, 0616ms total)
T3B80 005:574 JLINK_ReadMemU32(0xE0001028, 0x0001 Items, ...) -- CPU_ReadMem(4 bytes @ 0xE0001028) - Data: 00 00 00 00  returns 0x01 (0000ms, 0616ms total)
T3B80 005:574 JLINK_ReadMemU32(0xE0001038, 0x0001 Items, ...) -- CPU_ReadMem(4 bytes @ 0xE0001038) - Data: 00 02 00 00  returns 0x01 (0000ms, 0616ms total)
T3B80 005:574 JLINK_ReadMemU32(0xE0001048, 0x0001 Items, ...) -- CPU_ReadMem(4 bytes @ 0xE0001048) - Data: 00 00 00 00  returns 0x01 (0001ms, 0617ms total)
T3B80 005:575 JLINK_ReadMemU32(0xE0001058, 0x0001 Items, ...) -- CPU_ReadMem(4 bytes @ 0xE0001058) - Data: 00 00 00 00  returns 0x01 (0000ms, 0617ms total)
T3B80 005:576 JLINK_ReadReg(R0)  returns 0x2000BD40 (0000ms, 0617ms total)
T3B80 005:576 JLINK_ReadReg(R1)  returns 0x2000BF40 (0000ms, 0617ms total)
T3B80 005:576 JLINK_ReadReg(R2)  returns 0x2000BF40 (0000ms, 0617ms total)
T3B80 005:576 JLINK_ReadReg(R3)  returns 0x2000BF40 (0000ms, 0617ms total)
T3B80 005:576 JLINK_ReadReg(R4)  returns 0x00000000 (0000ms, 0617ms total)
T3B80 005:576 JLINK_ReadReg(R5)  returns 0x2000BCE0 (0000ms, 0617ms total)
T3B80 005:576 JLINK_ReadReg(R6)  returns 0x00000000 (0000ms, 0617ms total)
T3B80 005:576 JLINK_ReadReg(R7)  returns 0x00000000 (0000ms, 0617ms total)
T3B80 005:576 JLINK_ReadReg(R8)  returns 0x00000000 (0000ms, 0617ms total)
T3B80 005:576 JLINK_ReadReg(R9)  returns 0x200001E0 (0000ms, 0617ms total)
T3B80 005:576 JLINK_ReadReg(R10)  returns 0x0805E4DC (0000ms, 0617ms total)
T3B80 005:576 JLINK_ReadReg(R11)  returns 0x00000000 (0000ms, 0617ms total)
T3B80 005:576 JLINK_ReadReg(R12)  returns 0x2000BD20 (0000ms, 0617ms total)
T3B80 005:576 JLINK_ReadReg(R13 (SP))  returns 0x2000C340 (0000ms, 0617ms total)
T3B80 005:577 JLINK_ReadReg(R14)  returns 0x0800022B (0000ms, 0618ms total)
T3B80 005:577 JLINK_ReadReg(R15 (PC))  returns 0x08003AA4 (0000ms, 0618ms total)
T3B80 005:577 JLINK_ReadReg(XPSR)  returns 0x21000000 (0000ms, 0618ms total)
T3B80 005:577 JLINK_ReadReg(MSP)  returns 0x2000C340 (0000ms, 0618ms total)
T3B80 005:577 JLINK_ReadReg(PSP)  returns 0x20001000 (0000ms, 0618ms total)
T3B80 005:577 JLINK_ReadReg(CFBP)  returns 0x00000000 (0000ms, 0618ms total)
T56BC 005:577 JLINK_ReadMem (0x200001EF, 0x0001 Bytes, ...) -- CPU_ReadMem(1 bytes @ 0x200001EF) - Data: 00  returns 0x00 (0001ms, 0619ms total)
T56BC 005:578 JLINK_ReadMem (0x200001F6, 0x0001 Bytes, ...) -- CPU_ReadMem(1 bytes @ 0x200001F6) - Data: 00  returns 0x00 (0001ms, 0620ms total)
T56BC 005:591 JLINK_ReadMem (0x200095CC, 0x0015 Bytes, ...) -- CPU_ReadMem(21 bytes @ 0x200095CC) - Data: 00 00 00 00 00 00 00 00 00 00 00 00 00 00 00 00 ...  returns 0x00 (0000ms, 0620ms total)
T56BC 005:591 JLINK_ReadMem (0x08003AA4, 0x003C Bytes, ...) -- CPU_ReadMem(128 bytes @ 0x08003A80) -- Updating DA cache (128 bytes @ 0x08003A80) -- Read from DA cache (60 bytes @ 0x08003AA4) - Data: 4F F4 7A 70 FC F7 FD FB FF F7 8C FF 0A 20 FC F7 ...  returns 0x00 (0002ms, 0622ms total)
T3B80 008:978 JLINK_Step() -- Read from DA cache (2 bytes @ 0x08003AA4) -- CPU_ReadMem(4 bytes @ 0xE0001004) -- Not simulated -- CPU_WriteMem(4 bytes @ 0xE0002008) -- CPU_WriteMem(4 bytes @ 0xE000200C)  returns 0x00 (0004ms, 0626ms total)
T3B80 008:982 JLINK_ReadReg(R15 (PC))  returns 0x08003AA8 (0000ms, 0626ms total)
T3B80 008:982 JLINK_ReadReg(XPSR)  returns 0x21000000 (0000ms, 0626ms total)
T3B80 008:982 JLINK_SetBPEx(Addr = 0x08003AAC, Type = 0xFFFFFFF2)  returns 0x00000003 (0001ms, 0627ms total)
T3B80 008:983 JLINK_SetBPEx(Addr = 0x08003A18, Type = 0xFFFFFFF2)  returns 0x00000004 (0000ms, 0627ms total)
T3B80 008:983 JLINK_Go() -- CPU_WriteMem(4 bytes @ 0xE0002000) -- CPU_WriteMem(4 bytes @ 0xE0002000) -- CPU_ReadMem(4 bytes @ 0xE0001000) -- CPU_WriteMem(4 bytes @ 0xE0002008) -- CPU_WriteMem(4 bytes @ 0xE000200C) (0002ms, 0629ms total)
T3B80 009:086 JLINK_IsHalted()  returns FALSE (0001ms, 0630ms total)
T3B80 009:188 JLINK_IsHalted()  returns FALSE (0000ms, 0629ms total)
T3B80 009:289 JLINK_IsHalted()  returns FALSE (0000ms, 0629ms total)
T3B80 009:390 JLINK_IsHalted()  returns FALSE (0000ms, 0629ms total)
T3B80 009:491 JLINK_IsHalted()  returns FALSE (0000ms, 0629ms total)
T3B80 009:593 JLINK_IsHalted()  returns TRUE (0002ms, 0631ms total)
T3B80 009:595 JLINK_Halt()  returns 0x00 (0000ms, 0629ms total)
T3B80 009:595 JLINK_IsHalted()  returns TRUE (0000ms, 0629ms total)
T3B80 009:595 JLINK_IsHalted()  returns TRUE (0000ms, 0629ms total)
T3B80 009:595 JLINK_IsHalted()  returns TRUE (0000ms, 0629ms total)
T3B80 009:595 JLINK_ReadReg(R15 (PC))  returns 0x08003AAC (0000ms, 0629ms total)
T3B80 009:595 JLINK_ReadReg(XPSR)  returns 0x61000000 (0000ms, 0629ms total)
T3B80 009:595 JLINK_ClrBPEx(BPHandle = 0x00000003)  returns 0x00 (0000ms, 0629ms total)
T3B80 009:595 JLINK_ClrBPEx(BPHandle = 0x00000004)  returns 0x00 (0000ms, 0629ms total)
T3B80 009:595 JLINK_ReadMemU32(0xE000ED30, 0x0001 Items, ...) -- CPU_ReadMem(4 bytes @ 0xE000ED30) - Data: 03 00 00 00  returns 0x01 (0001ms, 0630ms total)
T3B80 009:596 JLINK_ReadMemU32(0xE0001028, 0x0001 Items, ...) -- CPU_ReadMem(4 bytes @ 0xE0001028) - Data: 00 00 00 00  returns 0x01 (0000ms, 0630ms total)
T3B80 009:596 JLINK_ReadMemU32(0xE0001038, 0x0001 Items, ...) -- CPU_ReadMem(4 bytes @ 0xE0001038) - Data: 00 02 00 00  returns 0x01 (0001ms, 0631ms total)
T3B80 009:597 JLINK_ReadMemU32(0xE0001048, 0x0001 Items, ...) -- CPU_ReadMem(4 bytes @ 0xE0001048) - Data: 00 00 00 00  returns 0x01 (0000ms, 0631ms total)
T3B80 009:597 JLINK_ReadMemU32(0xE0001058, 0x0001 Items, ...) -- CPU_ReadMem(4 bytes @ 0xE0001058) - Data: 00 00 00 00  returns 0x01 (0000ms, 0631ms total)
T3B80 009:598 JLINK_ReadReg(R0)  returns 0x00000000 (0000ms, 0631ms total)
T3B80 009:598 JLINK_ReadReg(R1)  returns 0x000003E8 (0000ms, 0631ms total)
T3B80 009:598 JLINK_ReadReg(R2)  returns 0x00002788 (0000ms, 0631ms total)
T3B80 009:598 JLINK_ReadReg(R3)  returns 0x2000BF40 (0000ms, 0631ms total)
T3B80 009:598 JLINK_ReadReg(R4)  returns 0x00000000 (0000ms, 0631ms total)
T3B80 009:598 JLINK_ReadReg(R5)  returns 0x2000BCE0 (0000ms, 0631ms total)
T3B80 009:598 JLINK_ReadReg(R6)  returns 0x00000000 (0000ms, 0631ms total)
T3B80 009:598 JLINK_ReadReg(R7)  returns 0x00000000 (0000ms, 0631ms total)
T3B80 009:598 JLINK_ReadReg(R8)  returns 0x00000000 (0000ms, 0631ms total)
T3B80 009:598 JLINK_ReadReg(R9)  returns 0x200001E0 (0000ms, 0631ms total)
T3B80 009:598 JLINK_ReadReg(R10)  returns 0x0805E4DC (0000ms, 0631ms total)
T3B80 009:598 JLINK_ReadReg(R11)  returns 0x00000000 (0000ms, 0631ms total)
T3B80 009:598 JLINK_ReadReg(R12)  returns 0x2000BD20 (0000ms, 0631ms total)
T3B80 009:598 JLINK_ReadReg(R13 (SP))  returns 0x2000C340 (0000ms, 0631ms total)
T3B80 009:598 JLINK_ReadReg(R14)  returns 0x08003AAD (0000ms, 0631ms total)
T3B80 009:598 JLINK_ReadReg(R15 (PC))  returns 0x08003AAC (0000ms, 0631ms total)
T3B80 009:598 JLINK_ReadReg(XPSR)  returns 0x61000000 (0000ms, 0631ms total)
T3B80 009:598 JLINK_ReadReg(MSP)  returns 0x2000C340 (0000ms, 0631ms total)
T3B80 009:598 JLINK_ReadReg(PSP)  returns 0x20001000 (0000ms, 0631ms total)
T3B80 009:598 JLINK_ReadReg(CFBP)  returns 0x00000000 (0000ms, 0631ms total)
T56BC 009:600 JLINK_ReadMem (0x200001EF, 0x0001 Bytes, ...) -- CPU_ReadMem(1 bytes @ 0x200001EF) - Data: 00  returns 0x00 (0000ms, 0631ms total)
T56BC 009:600 JLINK_ReadMem (0x200001F6, 0x0001 Bytes, ...) -- CPU_ReadMem(1 bytes @ 0x200001F6) - Data: 00  returns 0x00 (0001ms, 0632ms total)
T56BC 009:602 JLINK_ReadMem (0x200095CC, 0x0015 Bytes, ...) -- CPU_ReadMem(21 bytes @ 0x200095CC) - Data: 00 00 00 00 00 00 00 00 00 00 00 00 00 00 00 00 ...  returns 0x00 (0002ms, 0634ms total)
T56BC 009:604 JLINK_ReadMem (0x08003AAC, 0x003C Bytes, ...) -- CPU_ReadMem(128 bytes @ 0x08003A80) -- Updating DA cache (128 bytes @ 0x08003A80) -- Read from DA cache (60 bytes @ 0x08003AAC) - Data: FF F7 8C FF 0A 20 FC F7 F8 FB 00 20 02 F0 90 FE ...  returns 0x00 (0001ms, 0635ms total)
T3B80 010:559 JLINK_Step() -- Read from DA cache (2 bytes @ 0x08003AAC) -- CPU_ReadMem(4 bytes @ 0xE0001004) -- Not simulated -- CPU_WriteMem(4 bytes @ 0xE0002008) -- CPU_WriteMem(4 bytes @ 0xE000200C)  returns 0x00 (0005ms, 0640ms total)
T3B80 010:564 JLINK_ReadReg(R15 (PC))  returns 0x080039C8 (0000ms, 0640ms total)
T3B80 010:564 JLINK_ReadReg(XPSR)  returns 0x61000000 (0000ms, 0640ms total)
T3B80 010:564 JLINK_ReadReg(R0)  returns 0x00000000 (0000ms, 0640ms total)
T3B80 010:564 JLINK_ReadReg(R1)  returns 0x000003E8 (0000ms, 0640ms total)
T3B80 010:564 JLINK_ReadReg(R2)  returns 0x00002788 (0000ms, 0640ms total)
T3B80 010:564 JLINK_ReadReg(R3)  returns 0x2000BF40 (0000ms, 0640ms total)
T3B80 010:564 JLINK_ReadReg(R4)  returns 0x00000000 (0000ms, 0640ms total)
T3B80 010:564 JLINK_ReadReg(R5)  returns 0x2000BCE0 (0000ms, 0640ms total)
T3B80 010:564 JLINK_ReadReg(R6)  returns 0x00000000 (0000ms, 0640ms total)
T3B80 010:564 JLINK_ReadReg(R7)  returns 0x00000000 (0000ms, 0640ms total)
T3B80 010:564 JLINK_ReadReg(R8)  returns 0x00000000 (0000ms, 0640ms total)
T3B80 010:564 JLINK_ReadReg(R9)  returns 0x200001E0 (0000ms, 0640ms total)
T3B80 010:564 JLINK_ReadReg(R10)  returns 0x0805E4DC (0000ms, 0640ms total)
T3B80 010:565 JLINK_ReadReg(R11)  returns 0x00000000 (0000ms, 0641ms total)
T3B80 010:565 JLINK_ReadReg(R12)  returns 0x2000BD20 (0000ms, 0641ms total)
T3B80 010:565 JLINK_ReadReg(R13 (SP))  returns 0x2000C340 (0000ms, 0641ms total)
T3B80 010:565 JLINK_ReadReg(R14)  returns 0x08003AB1 (0000ms, 0641ms total)
T3B80 010:565 JLINK_ReadReg(R15 (PC))  returns 0x080039C8 (0000ms, 0641ms total)
T3B80 010:565 JLINK_ReadReg(XPSR)  returns 0x61000000 (0000ms, 0641ms total)
T3B80 010:565 JLINK_ReadReg(MSP)  returns 0x2000C340 (0000ms, 0641ms total)
T3B80 010:565 JLINK_ReadReg(PSP)  returns 0x20001000 (0000ms, 0641ms total)
T3B80 010:565 JLINK_ReadReg(CFBP)  returns 0x00000000 (0000ms, 0641ms total)
T56BC 010:565 JLINK_ReadMem (0x200001EF, 0x0001 Bytes, ...) -- CPU_ReadMem(1 bytes @ 0x200001EF) - Data: 00  returns 0x00 (0000ms, 0641ms total)
T56BC 010:565 JLINK_ReadMem (0x200001F6, 0x0001 Bytes, ...) -- CPU_ReadMem(1 bytes @ 0x200001F6) - Data: 00  returns 0x00 (0001ms, 0642ms total)
T56BC 010:579 JLINK_ReadMem (0x200095CC, 0x0015 Bytes, ...) -- CPU_ReadMem(21 bytes @ 0x200095CC) - Data: 00 00 00 00 00 00 00 00 00 00 00 00 00 00 00 00 ...  returns 0x00 (0001ms, 0643ms total)
T3B80 011:734 JLINK_ReadMem (0x080039C8, 0x003C Bytes, ...) -- CPU_ReadMem(128 bytes @ 0x080039C0) -- Updating DA cache (128 bytes @ 0x080039C0) -- Read from DA cache (60 bytes @ 0x080039C8) - Data: 0E B5 05 F0 88 FF 4F F4 80 60 04 F0 4D FC 00 20 ...  returns 0x00 (0001ms, 0644ms total)
T3B80 011:735 JLINK_Step() -- Read from DA cache (2 bytes @ 0x080039C8) -- CPU_ReadMem(4 bytes @ 0xE0001004) -- Not simulated  returns 0x00 (0004ms, 0648ms total)
T3B80 011:739 JLINK_ReadReg(R15 (PC))  returns 0x080039CA (0000ms, 0648ms total)
T3B80 011:739 JLINK_ReadReg(XPSR)  returns 0x61000000 (0000ms, 0648ms total)
T3B80 011:739 JLINK_ReadReg(R0)  returns 0x00000000 (0000ms, 0648ms total)
T3B80 011:739 JLINK_ReadReg(R1)  returns 0x000003E8 (0000ms, 0648ms total)
T3B80 011:739 JLINK_ReadReg(R2)  returns 0x00002788 (0000ms, 0648ms total)
T3B80 011:739 JLINK_ReadReg(R3)  returns 0x2000BF40 (0000ms, 0648ms total)
T3B80 011:739 JLINK_ReadReg(R4)  returns 0x00000000 (0000ms, 0648ms total)
T3B80 011:739 JLINK_ReadReg(R5)  returns 0x2000BCE0 (0000ms, 0648ms total)
T3B80 011:739 JLINK_ReadReg(R6)  returns 0x00000000 (0000ms, 0648ms total)
T3B80 011:739 JLINK_ReadReg(R7)  returns 0x00000000 (0000ms, 0648ms total)
T3B80 011:739 JLINK_ReadReg(R8)  returns 0x00000000 (0000ms, 0648ms total)
T3B80 011:739 JLINK_ReadReg(R9)  returns 0x200001E0 (0000ms, 0648ms total)
T3B80 011:739 JLINK_ReadReg(R10)  returns 0x0805E4DC (0000ms, 0648ms total)
T3B80 011:739 JLINK_ReadReg(R11)  returns 0x00000000 (0000ms, 0648ms total)
T3B80 011:739 JLINK_ReadReg(R12)  returns 0x2000BD20 (0000ms, 0648ms total)
T3B80 011:739 JLINK_ReadReg(R13 (SP))  returns 0x2000C330 (0001ms, 0649ms total)
T3B80 011:740 JLINK_ReadReg(R14)  returns 0x08003AB1 (0000ms, 0649ms total)
T3B80 011:740 JLINK_ReadReg(R15 (PC))  returns 0x080039CA (0000ms, 0649ms total)
T3B80 011:740 JLINK_ReadReg(XPSR)  returns 0x61000000 (0000ms, 0649ms total)
T3B80 011:740 JLINK_ReadReg(MSP)  returns 0x2000C330 (0000ms, 0649ms total)
T3B80 011:740 JLINK_ReadReg(PSP)  returns 0x20001000 (0000ms, 0649ms total)
T3B80 011:740 JLINK_ReadReg(CFBP)  returns 0x00000000 (0000ms, 0649ms total)
T56BC 011:740 JLINK_ReadMem (0x200001EF, 0x0001 Bytes, ...) -- CPU_ReadMem(1 bytes @ 0x200001EF) - Data: 00  returns 0x00 (0001ms, 0650ms total)
T56BC 011:741 JLINK_ReadMem (0x200001F6, 0x0001 Bytes, ...) -- CPU_ReadMem(1 bytes @ 0x200001F6) - Data: 00  returns 0x00 (0000ms, 0650ms total)
T56BC 011:744 JLINK_ReadMem (0x200095CC, 0x0015 Bytes, ...) -- CPU_ReadMem(21 bytes @ 0x200095CC) - Data: 00 00 00 00 00 00 00 00 00 00 00 00 00 00 00 00 ...  returns 0x00 (0001ms, 0651ms total)
T3B80 012:247 JLINK_ReadMem (0x080039CA, 0x0002 Bytes, ...) -- CPU_ReadMem(64 bytes @ 0x080039C0) -- Updating DA cache (64 bytes @ 0x080039C0) -- Read from DA cache (2 bytes @ 0x080039CA) - Data: 05 F0  returns 0x00 (0001ms, 0652ms total)
T3B80 012:248 JLINK_ReadMem (0x080039CC, 0x003C Bytes, ...) -- CPU_ReadMem(64 bytes @ 0x08003A00) -- Updating DA cache (64 bytes @ 0x08003A00) -- Read from DA cache (60 bytes @ 0x080039CC) - Data: 88 FF 4F F4 80 60 04 F0 4D FC 00 20 04 F0 53 FC ...  returns 0x00 (0001ms, 0653ms total)
T3B80 012:249 JLINK_SetBPEx(Addr = 0x080039CE, Type = 0xFFFFFFF2)  returns 0x00000005 (0000ms, 0653ms total)
T3B80 012:249 JLINK_SetBPEx(Addr = 0x08003A18, Type = 0xFFFFFFF2)  returns 0x00000006 (0000ms, 0653ms total)
T3B80 012:249 JLINK_Go() -- CPU_WriteMem(4 bytes @ 0xE0002000) -- CPU_WriteMem(4 bytes @ 0xE0002000) -- CPU_ReadMem(4 bytes @ 0xE0001000) -- CPU_WriteMem(4 bytes @ 0xE0002008) -- CPU_WriteMem(4 bytes @ 0xE000200C) (0003ms, 0656ms total)
T3B80 012:353 JLINK_IsHalted()  returns TRUE (0002ms, 0658ms total)
T3B80 012:355 JLINK_Halt()  returns 0x00 (0000ms, 0656ms total)
T3B80 012:355 JLINK_IsHalted()  returns TRUE (0000ms, 0656ms total)
T3B80 012:355 JLINK_IsHalted()  returns TRUE (0000ms, 0656ms total)
T3B80 012:355 JLINK_IsHalted()  returns TRUE (0000ms, 0656ms total)
T3B80 012:355 JLINK_ReadReg(R15 (PC))  returns 0x080039CE (0000ms, 0656ms total)
T3B80 012:355 JLINK_ReadReg(XPSR)  returns 0x61000000 (0000ms, 0656ms total)
T3B80 012:355 JLINK_ClrBPEx(BPHandle = 0x00000005)  returns 0x00 (0000ms, 0656ms total)
T3B80 012:355 JLINK_ClrBPEx(BPHandle = 0x00000006)  returns 0x00 (0000ms, 0656ms total)
T3B80 012:355 JLINK_ReadMemU32(0xE000ED30, 0x0001 Items, ...) -- CPU_ReadMem(4 bytes @ 0xE000ED30) - Data: 03 00 00 00  returns 0x01 (0002ms, 0658ms total)
T3B80 012:357 JLINK_ReadMemU32(0xE0001028, 0x0001 Items, ...) -- CPU_ReadMem(4 bytes @ 0xE0001028) - Data: 00 00 00 00  returns 0x01 (0000ms, 0658ms total)
T3B80 012:357 JLINK_ReadMemU32(0xE0001038, 0x0001 Items, ...) -- CPU_ReadMem(4 bytes @ 0xE0001038) - Data: 00 02 00 00  returns 0x01 (0000ms, 0658ms total)
T3B80 012:357 JLINK_ReadMemU32(0xE0001048, 0x0001 Items, ...) -- CPU_ReadMem(4 bytes @ 0xE0001048) - Data: 00 00 00 00  returns 0x01 (0001ms, 0659ms total)
T3B80 012:358 JLINK_ReadMemU32(0xE0001058, 0x0001 Items, ...) -- CPU_ReadMem(4 bytes @ 0xE0001058) - Data: 00 00 00 00  returns 0x01 (0000ms, 0659ms total)
T3B80 012:358 JLINK_ReadReg(R0)  returns 0x08000000 (0000ms, 0659ms total)
T3B80 012:358 JLINK_ReadReg(R1)  returns 0xE000ED08 (0000ms, 0659ms total)
T3B80 012:358 JLINK_ReadReg(R2)  returns 0x00000001 (0000ms, 0659ms total)
T3B80 012:358 JLINK_ReadReg(R3)  returns 0x00000158 (0000ms, 0659ms total)
T3B80 012:358 JLINK_ReadReg(R4)  returns 0x00000000 (0000ms, 0659ms total)
T3B80 012:358 JLINK_ReadReg(R5)  returns 0x2000BCE0 (0000ms, 0659ms total)
T3B80 012:358 JLINK_ReadReg(R6)  returns 0x00000000 (0000ms, 0659ms total)
T3B80 012:358 JLINK_ReadReg(R7)  returns 0x00000000 (0000ms, 0659ms total)
T3B80 012:358 JLINK_ReadReg(R8)  returns 0x00000000 (0001ms, 0660ms total)
T3B80 012:359 JLINK_ReadReg(R9)  returns 0x200001E0 (0000ms, 0660ms total)
T3B80 012:359 JLINK_ReadReg(R10)  returns 0x0805E4DC (0000ms, 0660ms total)
T3B80 012:359 JLINK_ReadReg(R11)  returns 0x00000000 (0000ms, 0660ms total)
T3B80 012:359 JLINK_ReadReg(R12)  returns 0x2000BD20 (0000ms, 0660ms total)
T3B80 012:359 JLINK_ReadReg(R13 (SP))  returns 0x2000C330 (0000ms, 0660ms total)
T3B80 012:359 JLINK_ReadReg(R14)  returns 0x080098DD (0000ms, 0660ms total)
T3B80 012:359 JLINK_ReadReg(R15 (PC))  returns 0x080039CE (0000ms, 0660ms total)
T3B80 012:359 JLINK_ReadReg(XPSR)  returns 0x61000000 (0000ms, 0660ms total)
T3B80 012:359 JLINK_ReadReg(MSP)  returns 0x2000C330 (0000ms, 0660ms total)
T3B80 012:359 JLINK_ReadReg(PSP)  returns 0x20001000 (0000ms, 0660ms total)
T3B80 012:359 JLINK_ReadReg(CFBP)  returns 0x00000000 (0000ms, 0660ms total)
T56BC 012:361 JLINK_ReadMem (0x200001EF, 0x0001 Bytes, ...) -- CPU_ReadMem(1 bytes @ 0x200001EF) - Data: 00  returns 0x00 (0001ms, 0661ms total)
T56BC 012:362 JLINK_ReadMem (0x200001F6, 0x0001 Bytes, ...) -- CPU_ReadMem(1 bytes @ 0x200001F6) - Data: 00  returns 0x00 (0000ms, 0661ms total)
T56BC 012:365 JLINK_ReadMem (0x200095CC, 0x0015 Bytes, ...) -- CPU_ReadMem(21 bytes @ 0x200095CC) - Data: 00 00 00 00 00 00 00 00 00 00 00 00 00 00 00 00 ...  returns 0x00 (0001ms, 0662ms total)
T56BC 012:366 JLINK_ReadMem (0x080039CE, 0x0002 Bytes, ...) -- CPU_ReadMem(64 bytes @ 0x080039C0) -- Updating DA cache (64 bytes @ 0x080039C0) -- Read from DA cache (2 bytes @ 0x080039CE) - Data: 4F F4  returns 0x00 (0001ms, 0663ms total)
T56BC 012:367 JLINK_ReadMem (0x080039D0, 0x003C Bytes, ...) -- CPU_ReadMem(64 bytes @ 0x08003A00) -- Updating DA cache (64 bytes @ 0x08003A00) -- Read from DA cache (60 bytes @ 0x080039D0) - Data: 80 60 04 F0 4D FC 00 20 04 F0 53 FC 4F F4 00 40 ...  returns 0x00 (0000ms, 0663ms total)
T3B80 012:778 JLINK_Step() -- Read from DA cache (2 bytes @ 0x080039CE) -- CPU_ReadMem(4 bytes @ 0xE0001004) -- Not simulated -- CPU_WriteMem(4 bytes @ 0xE0002008) -- CPU_WriteMem(4 bytes @ 0xE000200C)  returns 0x00 (0004ms, 0667ms total)
T3B80 012:782 JLINK_ReadReg(R15 (PC))  returns 0x080039D2 (0000ms, 0667ms total)
T3B80 012:782 JLINK_ReadReg(XPSR)  returns 0x61000000 (0000ms, 0667ms total)
T3B80 012:782 JLINK_SetBPEx(Addr = 0x080039D6, Type = 0xFFFFFFF2)  returns 0x00000007 (0000ms, 0667ms total)
T3B80 012:782 JLINK_SetBPEx(Addr = 0x08003A18, Type = 0xFFFFFFF2)  returns 0x00000008 (0000ms, 0667ms total)
T3B80 012:782 JLINK_Go() -- CPU_WriteMem(4 bytes @ 0xE0002000) -- CPU_WriteMem(4 bytes @ 0xE0002000) -- CPU_ReadMem(4 bytes @ 0xE0001000) -- CPU_WriteMem(4 bytes @ 0xE0002008) -- CPU_WriteMem(4 bytes @ 0xE000200C) (0002ms, 0669ms total)
T3B80 012:885 JLINK_IsHalted()  returns TRUE (0002ms, 0671ms total)
T3B80 012:888 JLINK_Halt()  returns 0x00 (0000ms, 0669ms total)
T3B80 012:888 JLINK_IsHalted()  returns TRUE (0000ms, 0669ms total)
T3B80 012:888 JLINK_IsHalted()  returns TRUE (0000ms, 0669ms total)
T3B80 012:888 JLINK_IsHalted()  returns TRUE (0000ms, 0669ms total)
T3B80 012:888 JLINK_ReadReg(R15 (PC))  returns 0x080039D6 (0000ms, 0669ms total)
T3B80 012:888 JLINK_ReadReg(XPSR)  returns 0x21000000 (0000ms, 0669ms total)
T3B80 012:888 JLINK_ClrBPEx(BPHandle = 0x00000007)  returns 0x00 (0000ms, 0669ms total)
T3B80 012:888 JLINK_ClrBPEx(BPHandle = 0x00000008)  returns 0x00 (0000ms, 0669ms total)
T3B80 012:888 JLINK_ReadMemU32(0xE000ED30, 0x0001 Items, ...) -- CPU_ReadMem(4 bytes @ 0xE000ED30) - Data: 03 00 00 00  returns 0x01 (0000ms, 0669ms total)
T3B80 012:888 JLINK_ReadMemU32(0xE0001028, 0x0001 Items, ...) -- CPU_ReadMem(4 bytes @ 0xE0001028) - Data: 00 00 00 00  returns 0x01 (0001ms, 0670ms total)
T3B80 012:889 JLINK_ReadMemU32(0xE0001038, 0x0001 Items, ...) -- CPU_ReadMem(4 bytes @ 0xE0001038) - Data: 00 02 00 00  returns 0x01 (0000ms, 0670ms total)
T3B80 012:889 JLINK_ReadMemU32(0xE0001048, 0x0001 Items, ...) -- CPU_ReadMem(4 bytes @ 0xE0001048) - Data: 00 00 00 00  returns 0x01 (0001ms, 0671ms total)
T3B80 012:890 JLINK_ReadMemU32(0xE0001058, 0x0001 Items, ...) -- CPU_ReadMem(4 bytes @ 0xE0001058) - Data: 00 00 00 00  returns 0x01 (0000ms, 0671ms total)
T3B80 012:891 JLINK_ReadReg(R0)  returns 0x001D040A (0000ms, 0672ms total)
T3B80 012:891 JLINK_ReadReg(R1)  returns 0x00000400 (0000ms, 0672ms total)
T3B80 012:891 JLINK_ReadReg(R2)  returns 0x40021000 (0000ms, 0672ms total)
T3B80 012:891 JLINK_ReadReg(R3)  returns 0x00000158 (0000ms, 0672ms total)
T3B80 012:891 JLINK_ReadReg(R4)  returns 0x00000000 (0000ms, 0672ms total)
T3B80 012:891 JLINK_ReadReg(R5)  returns 0x2000BCE0 (0000ms, 0672ms total)
T3B80 012:891 JLINK_ReadReg(R6)  returns 0x00000000 (0000ms, 0672ms total)
T3B80 012:891 JLINK_ReadReg(R7)  returns 0x00000000 (0000ms, 0672ms total)
T3B80 012:891 JLINK_ReadReg(R8)  returns 0x00000000 (0000ms, 0672ms total)
T3B80 012:891 JLINK_ReadReg(R9)  returns 0x200001E0 (0000ms, 0672ms total)
T3B80 012:891 JLINK_ReadReg(R10)  returns 0x0805E4DC (0000ms, 0672ms total)
T3B80 012:891 JLINK_ReadReg(R11)  returns 0x00000000 (0000ms, 0672ms total)
T3B80 012:891 JLINK_ReadReg(R12)  returns 0x2000BD20 (0000ms, 0672ms total)
T3B80 012:891 JLINK_ReadReg(R13 (SP))  returns 0x2000C330 (0000ms, 0672ms total)
T3B80 012:891 JLINK_ReadReg(R14)  returns 0x080039D7 (0000ms, 0672ms total)
T3B80 012:891 JLINK_ReadReg(R15 (PC))  returns 0x080039D6 (0000ms, 0672ms total)
T3B80 012:891 JLINK_ReadReg(XPSR)  returns 0x21000000 (0000ms, 0672ms total)
T3B80 012:891 JLINK_ReadReg(MSP)  returns 0x2000C330 (0000ms, 0672ms total)
T3B80 012:891 JLINK_ReadReg(PSP)  returns 0x20001000 (0000ms, 0672ms total)
T3B80 012:891 JLINK_ReadReg(CFBP)  returns 0x00000000 (0000ms, 0672ms total)
T56BC 012:893 JLINK_ReadMem (0x200001EF, 0x0001 Bytes, ...) -- CPU_ReadMem(1 bytes @ 0x200001EF) - Data: 00  returns 0x00 (0000ms, 0672ms total)
T56BC 012:893 JLINK_ReadMem (0x200001F6, 0x0001 Bytes, ...) -- CPU_ReadMem(1 bytes @ 0x200001F6) - Data: 00  returns 0x00 (0001ms, 0673ms total)
T56BC 012:896 JLINK_ReadMem (0x200095CC, 0x0015 Bytes, ...) -- CPU_ReadMem(21 bytes @ 0x200095CC) - Data: 00 00 00 00 00 00 00 00 00 00 00 00 00 00 00 00 ...  returns 0x00 (0001ms, 0674ms total)
T56BC 012:897 JLINK_ReadMem (0x080039D6, 0x0002 Bytes, ...) -- CPU_ReadMem(64 bytes @ 0x080039C0) -- Updating DA cache (64 bytes @ 0x080039C0) -- Read from DA cache (2 bytes @ 0x080039D6) - Data: 00 20  returns 0x00 (0001ms, 0675ms total)
T56BC 012:898 JLINK_ReadMem (0x080039D8, 0x003C Bytes, ...) -- CPU_ReadMem(64 bytes @ 0x08003A00) -- Updating DA cache (64 bytes @ 0x08003A00) -- Read from DA cache (60 bytes @ 0x080039D8) - Data: 04 F0 53 FC 4F F4 00 40 04 F0 6A FC 01 21 3D 20 ...  returns 0x00 (0001ms, 0676ms total)
T3B80 013:123 JLINK_Step() -- Read from DA cache (2 bytes @ 0x080039D6) -- CPU_ReadMem(4 bytes @ 0xE0001004) -- Simulated  returns 0x00 (0000ms, 0676ms total)
T3B80 013:123 JLINK_ReadReg(R15 (PC))  returns 0x080039D8 (0000ms, 0676ms total)
T3B80 013:123 JLINK_ReadReg(XPSR)  returns 0x61000000 (0000ms, 0676ms total)
T3B80 013:123 JLINK_SetBPEx(Addr = 0x080039DC, Type = 0xFFFFFFF2)  returns 0x00000009 (0001ms, 0677ms total)
T3B80 013:124 JLINK_SetBPEx(Addr = 0x08003A18, Type = 0xFFFFFFF2)  returns 0x0000000A (0000ms, 0677ms total)
T3B80 013:124 JLINK_Go() -- CPU_WriteMem(4 bytes @ 0xE0002000) -- CPU_WriteMem(4 bytes @ 0xE0002000) -- CPU_ReadMem(4 bytes @ 0xE0001000) -- CPU_WriteMem(4 bytes @ 0xE0002008) -- CPU_WriteMem(4 bytes @ 0xE0001004) (0002ms, 0679ms total)
T3B80 013:227 JLINK_IsHalted()  returns TRUE (0003ms, 0682ms total)
T3B80 013:230 JLINK_Halt()  returns 0x00 (0000ms, 0679ms total)
T3B80 013:230 JLINK_IsHalted()  returns TRUE (0000ms, 0679ms total)
T3B80 013:230 JLINK_IsHalted()  returns TRUE (0000ms, 0679ms total)
T3B80 013:230 JLINK_IsHalted()  returns TRUE (0000ms, 0679ms total)
T3B80 013:230 JLINK_ReadReg(R15 (PC))  returns 0x080039DC (0000ms, 0679ms total)
T3B80 013:230 JLINK_ReadReg(XPSR)  returns 0x61000000 (0000ms, 0679ms total)
T3B80 013:230 JLINK_ClrBPEx(BPHandle = 0x00000009)  returns 0x00 (0000ms, 0679ms total)
T3B80 013:230 JLINK_ClrBPEx(BPHandle = 0x0000000A)  returns 0x00 (0000ms, 0679ms total)
T3B80 013:230 JLINK_ReadMemU32(0xE000ED30, 0x0001 Items, ...) -- CPU_ReadMem(4 bytes @ 0xE000ED30) - Data: 03 00 00 00  returns 0x01 (0001ms, 0680ms total)
T3B80 013:231 JLINK_ReadMemU32(0xE0001028, 0x0001 Items, ...) -- CPU_ReadMem(4 bytes @ 0xE0001028) - Data: 00 00 00 00  returns 0x01 (0000ms, 0680ms total)
T3B80 013:231 JLINK_ReadMemU32(0xE0001038, 0x0001 Items, ...) -- CPU_ReadMem(4 bytes @ 0xE0001038) - Data: 00 02 00 00  returns 0x01 (0000ms, 0680ms total)
T3B80 013:231 JLINK_ReadMemU32(0xE0001048, 0x0001 Items, ...) -- CPU_ReadMem(4 bytes @ 0xE0001048) - Data: 00 00 00 00  returns 0x01 (0001ms, 0681ms total)
T3B80 013:232 JLINK_ReadMemU32(0xE0001058, 0x0001 Items, ...) -- CPU_ReadMem(4 bytes @ 0xE0001058) - Data: 00 00 00 00  returns 0x01 (0000ms, 0681ms total)
T3B80 013:232 JLINK_ReadReg(R0)  returns 0x001D040A (0001ms, 0682ms total)
T3B80 013:233 JLINK_ReadReg(R1)  returns 0x00000000 (0000ms, 0682ms total)
T3B80 013:233 JLINK_ReadReg(R2)  returns 0x40021000 (0000ms, 0682ms total)
T3B80 013:233 JLINK_ReadReg(R3)  returns 0x00000158 (0000ms, 0682ms total)
T3B80 013:233 JLINK_ReadReg(R4)  returns 0x00000000 (0000ms, 0682ms total)
T3B80 013:233 JLINK_ReadReg(R5)  returns 0x2000BCE0 (0000ms, 0682ms total)
T3B80 013:233 JLINK_ReadReg(R6)  returns 0x00000000 (0000ms, 0682ms total)
T3B80 013:233 JLINK_ReadReg(R7)  returns 0x00000000 (0000ms, 0682ms total)
T3B80 013:233 JLINK_ReadReg(R8)  returns 0x00000000 (0000ms, 0682ms total)
T3B80 013:233 JLINK_ReadReg(R9)  returns 0x200001E0 (0000ms, 0682ms total)
T3B80 013:233 JLINK_ReadReg(R10)  returns 0x0805E4DC (0000ms, 0682ms total)
T3B80 013:233 JLINK_ReadReg(R11)  returns 0x00000000 (0000ms, 0682ms total)
T3B80 013:233 JLINK_ReadReg(R12)  returns 0x2000BD20 (0000ms, 0682ms total)
T3B80 013:233 JLINK_ReadReg(R13 (SP))  returns 0x2000C330 (0000ms, 0682ms total)
T3B80 013:233 JLINK_ReadReg(R14)  returns 0x080039DD (0000ms, 0682ms total)
T3B80 013:233 JLINK_ReadReg(R15 (PC))  returns 0x080039DC (0000ms, 0682ms total)
T3B80 013:233 JLINK_ReadReg(XPSR)  returns 0x61000000 (0000ms, 0682ms total)
T3B80 013:233 JLINK_ReadReg(MSP)  returns 0x2000C330 (0000ms, 0682ms total)
T3B80 013:233 JLINK_ReadReg(PSP)  returns 0x20001000 (0000ms, 0682ms total)
T3B80 013:233 JLINK_ReadReg(CFBP)  returns 0x00000000 (0000ms, 0682ms total)
T56BC 013:234 JLINK_ReadMem (0x200001EF, 0x0001 Bytes, ...) -- CPU_ReadMem(1 bytes @ 0x200001EF) - Data: 00  returns 0x00 (0001ms, 0683ms total)
T56BC 013:235 JLINK_ReadMem (0x200001F6, 0x0001 Bytes, ...) -- CPU_ReadMem(1 bytes @ 0x200001F6) - Data: 00  returns 0x00 (0000ms, 0683ms total)
T56BC 013:237 JLINK_ReadMem (0x200095CC, 0x0015 Bytes, ...) -- CPU_ReadMem(21 bytes @ 0x200095CC) - Data: 00 00 00 00 00 00 00 00 00 00 00 00 00 00 00 00 ...  returns 0x00 (0001ms, 0684ms total)
T56BC 013:238 JLINK_ReadMem (0x080039DC, 0x003C Bytes, ...) -- CPU_ReadMem(128 bytes @ 0x080039C0) -- Updating DA cache (128 bytes @ 0x080039C0) -- Read from DA cache (60 bytes @ 0x080039DC) - Data: 4F F4 00 40 04 F0 6A FC 01 21 3D 20 04 F0 7B FD ...  returns 0x00 (0001ms, 0685ms total)
T3B80 013:363 JLINK_Step() -- Read from DA cache (2 bytes @ 0x080039DC) -- CPU_ReadMem(4 bytes @ 0xE0001004) -- Not simulated -- CPU_WriteMem(4 bytes @ 0xE0002008) -- CPU_WriteMem(4 bytes @ 0xE000200C)  returns 0x00 (0004ms, 0689ms total)
T3B80 013:367 JLINK_ReadReg(R15 (PC))  returns 0x080039E0 (0000ms, 0689ms total)
T3B80 013:367 JLINK_ReadReg(XPSR)  returns 0x61000000 (0000ms, 0689ms total)
T3B80 013:367 JLINK_SetBPEx(Addr = 0x080039E4, Type = 0xFFFFFFF2)  returns 0x0000000B (0000ms, 0689ms total)
T3B80 013:367 JLINK_SetBPEx(Addr = 0x08003A18, Type = 0xFFFFFFF2)  returns 0x0000000C (0000ms, 0689ms total)
T3B80 013:367 JLINK_Go() -- CPU_WriteMem(4 bytes @ 0xE0002000) -- CPU_WriteMem(4 bytes @ 0xE0002000) -- CPU_ReadMem(4 bytes @ 0xE0001000) -- CPU_WriteMem(4 bytes @ 0xE0002008) -- CPU_WriteMem(4 bytes @ 0xE000200C) (0003ms, 0692ms total)
T3B80 013:470 JLINK_IsHalted()  returns TRUE (0003ms, 0695ms total)
T3B80 013:473 JLINK_Halt()  returns 0x00 (0000ms, 0692ms total)
T3B80 013:473 JLINK_IsHalted()  returns TRUE (0000ms, 0692ms total)
T3B80 013:473 JLINK_IsHalted()  returns TRUE (0000ms, 0692ms total)
T3B80 013:473 JLINK_IsHalted()  returns TRUE (0000ms, 0692ms total)
T3B80 013:473 JLINK_ReadReg(R15 (PC))  returns 0x080039E4 (0000ms, 0692ms total)
T3B80 013:473 JLINK_ReadReg(XPSR)  returns 0x21000000 (0000ms, 0692ms total)
T3B80 013:473 JLINK_ClrBPEx(BPHandle = 0x0000000B)  returns 0x00 (0000ms, 0692ms total)
T3B80 013:473 JLINK_ClrBPEx(BPHandle = 0x0000000C)  returns 0x00 (0000ms, 0692ms total)
T3B80 013:473 JLINK_ReadMemU32(0xE000ED30, 0x0001 Items, ...) -- CPU_ReadMem(4 bytes @ 0xE000ED30) - Data: 03 00 00 00  returns 0x01 (0001ms, 0693ms total)
T3B80 013:474 JLINK_ReadMemU32(0xE0001028, 0x0001 Items, ...) -- CPU_ReadMem(4 bytes @ 0xE0001028) - Data: 00 00 00 00  returns 0x01 (0002ms, 0695ms total)
T3B80 013:476 JLINK_ReadMemU32(0xE0001038, 0x0001 Items, ...) -- CPU_ReadMem(4 bytes @ 0xE0001038) - Data: 00 02 00 00  returns 0x01 (0000ms, 0695ms total)
T3B80 013:476 JLINK_ReadMemU32(0xE0001048, 0x0001 Items, ...) -- CPU_ReadMem(4 bytes @ 0xE0001048) - Data: 00 00 00 00  returns 0x01 (0001ms, 0696ms total)
T3B80 013:477 JLINK_ReadMemU32(0xE0001058, 0x0001 Items, ...) -- CPU_ReadMem(4 bytes @ 0xE0001058) - Data: 00 00 00 00  returns 0x01 (0001ms, 0697ms total)
T3B80 013:478 JLINK_ReadReg(R0)  returns 0x001D840A (0000ms, 0697ms total)
T3B80 013:478 JLINK_ReadReg(R1)  returns 0x00008000 (0000ms, 0697ms total)
T3B80 013:478 JLINK_ReadReg(R2)  returns 0x40021000 (0000ms, 0697ms total)
T3B80 013:478 JLINK_ReadReg(R3)  returns 0x00000158 (0000ms, 0697ms total)
T3B80 013:479 JLINK_ReadReg(R4)  returns 0x00000000 (0000ms, 0697ms total)
T3B80 013:479 JLINK_ReadReg(R5)  returns 0x2000BCE0 (0000ms, 0697ms total)
T3B80 013:479 JLINK_ReadReg(R6)  returns 0x00000000 (0000ms, 0697ms total)
T3B80 013:479 JLINK_ReadReg(R7)  returns 0x00000000 (0000ms, 0697ms total)
T3B80 013:479 JLINK_ReadReg(R8)  returns 0x00000000 (0000ms, 0697ms total)
T3B80 013:479 JLINK_ReadReg(R9)  returns 0x200001E0 (0000ms, 0697ms total)
T3B80 013:479 JLINK_ReadReg(R10)  returns 0x0805E4DC (0000ms, 0697ms total)
T3B80 013:479 JLINK_ReadReg(R11)  returns 0x00000000 (0000ms, 0697ms total)
T3B80 013:479 JLINK_ReadReg(R12)  returns 0x2000BD20 (0000ms, 0697ms total)
T3B80 013:479 JLINK_ReadReg(R13 (SP))  returns 0x2000C330 (0000ms, 0697ms total)
T3B80 013:479 JLINK_ReadReg(R14)  returns 0x080039E5 (0000ms, 0697ms total)
T3B80 013:479 JLINK_ReadReg(R15 (PC))  returns 0x080039E4 (0000ms, 0697ms total)
T3B80 013:479 JLINK_ReadReg(XPSR)  returns 0x21000000 (0000ms, 0697ms total)
T3B80 013:479 JLINK_ReadReg(MSP)  returns 0x2000C330 (0000ms, 0697ms total)
T3B80 013:479 JLINK_ReadReg(PSP)  returns 0x20001000 (0000ms, 0697ms total)
T3B80 013:479 JLINK_ReadReg(CFBP)  returns 0x00000000 (0000ms, 0697ms total)
T56BC 013:490 JLINK_ReadMem (0x200001EF, 0x0001 Bytes, ...) -- CPU_ReadMem(1 bytes @ 0x200001EF) - Data: 00  returns 0x00 (0001ms, 0698ms total)
T56BC 013:491 JLINK_ReadMem (0x200001F6, 0x0001 Bytes, ...) -- CPU_ReadMem(1 bytes @ 0x200001F6) - Data: 00  returns 0x00 (0000ms, 0698ms total)
T56BC 013:494 JLINK_ReadMem (0x200095CC, 0x0015 Bytes, ...) -- CPU_ReadMem(21 bytes @ 0x200095CC) - Data: 00 00 00 00 00 00 00 00 00 00 00 00 00 00 00 00 ...  returns 0x00 (0001ms, 0699ms total)
T56BC 013:495 JLINK_ReadMem (0x080039E4, 0x003C Bytes, ...) -- CPU_ReadMem(128 bytes @ 0x080039C0) -- Updating DA cache (128 bytes @ 0x080039C0) -- Read from DA cache (60 bytes @ 0x080039E4) - Data: 01 21 3D 20 04 F0 7B FD 01 21 48 02 04 F0 77 FD ...  returns 0x00 (0001ms, 0700ms total)
T3B80 013:974 JLINK_Step() -- Read from DA cache (2 bytes @ 0x080039E4) -- CPU_ReadMem(4 bytes @ 0xE0001004) -- Simulated  returns 0x00 (0001ms, 0701ms total)
T3B80 013:975 JLINK_ReadReg(R15 (PC))  returns 0x080039E6 (0000ms, 0701ms total)
T3B80 013:975 JLINK_ReadReg(XPSR)  returns 0x21000000 (0000ms, 0701ms total)
T3B80 013:975 JLINK_Step() -- Read from DA cache (2 bytes @ 0x080039E6) -- Simulated  returns 0x00 (0000ms, 0701ms total)
T3B80 013:975 JLINK_ReadReg(R15 (PC))  returns 0x080039E8 (0000ms, 0701ms total)
T3B80 013:975 JLINK_ReadReg(XPSR)  returns 0x21000000 (0000ms, 0701ms total)
T3B80 013:975 JLINK_SetBPEx(Addr = 0x080039EC, Type = 0xFFFFFFF2)  returns 0x0000000D (0000ms, 0701ms total)
T3B80 013:975 JLINK_SetBPEx(Addr = 0x08003A18, Type = 0xFFFFFFF2)  returns 0x0000000E (0000ms, 0701ms total)
T3B80 013:975 JLINK_Go() -- CPU_WriteMem(4 bytes @ 0xE0002000) -- CPU_WriteMem(4 bytes @ 0xE0002000) -- CPU_ReadMem(4 bytes @ 0xE0001000) -- CPU_WriteMem(4 bytes @ 0xE0002008) -- CPU_WriteMem(4 bytes @ 0xE0001004) (0003ms, 0704ms total)
T3B80 014:079 JLINK_IsHalted()  returns TRUE (0002ms, 0706ms total)
T3B80 014:081 JLINK_Halt()  returns 0x00 (0000ms, 0704ms total)
T3B80 014:081 JLINK_IsHalted()  returns TRUE (0000ms, 0704ms total)
T3B80 014:081 JLINK_IsHalted()  returns TRUE (0000ms, 0704ms total)
T3B80 014:081 JLINK_IsHalted()  returns TRUE (0000ms, 0704ms total)
T3B80 014:081 JLINK_ReadReg(R15 (PC))  returns 0x080039EC (0000ms, 0704ms total)
T3B80 014:081 JLINK_ReadReg(XPSR)  returns 0x21000000 (0000ms, 0704ms total)
T3B80 014:081 JLINK_ClrBPEx(BPHandle = 0x0000000D)  returns 0x00 (0000ms, 0704ms total)
T3B80 014:081 JLINK_ClrBPEx(BPHandle = 0x0000000E)  returns 0x00 (0000ms, 0704ms total)
T3B80 014:081 JLINK_ReadMemU32(0xE000ED30, 0x0001 Items, ...) -- CPU_ReadMem(4 bytes @ 0xE000ED30) - Data: 03 00 00 00  returns 0x01 (0001ms, 0705ms total)
T3B80 014:082 JLINK_ReadMemU32(0xE0001028, 0x0001 Items, ...) -- CPU_ReadMem(4 bytes @ 0xE0001028) - Data: 00 00 00 00  returns 0x01 (0000ms, 0705ms total)
T3B80 014:082 JLINK_ReadMemU32(0xE0001038, 0x0001 Items, ...) -- CPU_ReadMem(4 bytes @ 0xE0001038) - Data: 00 02 00 00  returns 0x01 (0001ms, 0706ms total)
T3B80 014:083 JLINK_ReadMemU32(0xE0001048, 0x0001 Items, ...) -- CPU_ReadMem(4 bytes @ 0xE0001048) - Data: 00 00 00 00  returns 0x01 (0001ms, 0707ms total)
T3B80 014:084 JLINK_ReadMemU32(0xE0001058, 0x0001 Items, ...) -- CPU_ReadMem(4 bytes @ 0xE0001058) - Data: 00 00 00 00  returns 0x01 (0001ms, 0708ms total)
T3B80 014:085 JLINK_ReadReg(R0)  returns 0x0000003D (0000ms, 0708ms total)
T3B80 014:085 JLINK_ReadReg(R1)  returns 0x00000001 (0000ms, 0708ms total)
T3B80 014:085 JLINK_ReadReg(R2)  returns 0x0000003D (0000ms, 0708ms total)
T3B80 014:085 JLINK_ReadReg(R3)  returns 0x40021000 (0000ms, 0708ms total)
T3B80 014:085 JLINK_ReadReg(R4)  returns 0x00000000 (0000ms, 0708ms total)
T3B80 014:085 JLINK_ReadReg(R5)  returns 0x2000BCE0 (0000ms, 0708ms total)
T3B80 014:085 JLINK_ReadReg(R6)  returns 0x00000000 (0000ms, 0708ms total)
T3B80 014:085 JLINK_ReadReg(R7)  returns 0x00000000 (0000ms, 0708ms total)
T3B80 014:085 JLINK_ReadReg(R8)  returns 0x00000000 (0000ms, 0708ms total)
T3B80 014:085 JLINK_ReadReg(R9)  returns 0x200001E0 (0000ms, 0708ms total)
T3B80 014:085 JLINK_ReadReg(R10)  returns 0x0805E4DC (0000ms, 0708ms total)
T3B80 014:085 JLINK_ReadReg(R11)  returns 0x00000000 (0000ms, 0708ms total)
T3B80 014:085 JLINK_ReadReg(R12)  returns 0x2000BD20 (0000ms, 0708ms total)
T3B80 014:085 JLINK_ReadReg(R13 (SP))  returns 0x2000C330 (0000ms, 0708ms total)
T3B80 014:085 JLINK_ReadReg(R14)  returns 0x080039ED (0000ms, 0708ms total)
T3B80 014:085 JLINK_ReadReg(R15 (PC))  returns 0x080039EC (0000ms, 0708ms total)
T3B80 014:085 JLINK_ReadReg(XPSR)  returns 0x21000000 (0000ms, 0708ms total)
T3B80 014:085 JLINK_ReadReg(MSP)  returns 0x2000C330 (0000ms, 0708ms total)
T3B80 014:085 JLINK_ReadReg(PSP)  returns 0x20001000 (0000ms, 0708ms total)
T3B80 014:085 JLINK_ReadReg(CFBP)  returns 0x00000000 (0000ms, 0708ms total)
T56BC 014:085 JLINK_ReadMem (0x200001EF, 0x0001 Bytes, ...) -- CPU_ReadMem(1 bytes @ 0x200001EF) - Data: 00  returns 0x00 (0001ms, 0709ms total)
T56BC 014:086 JLINK_ReadMem (0x200001F6, 0x0001 Bytes, ...) -- CPU_ReadMem(1 bytes @ 0x200001F6) - Data: 00  returns 0x00 (0000ms, 0709ms total)
T56BC 014:088 JLINK_ReadMem (0x200095CC, 0x0015 Bytes, ...) -- CPU_ReadMem(21 bytes @ 0x200095CC) - Data: 00 00 00 00 00 00 00 00 00 00 00 00 00 00 00 00 ...  returns 0x00 (0001ms, 0710ms total)
T56BC 014:090 JLINK_ReadMem (0x080039EC, 0x003C Bytes, ...) -- CPU_ReadMem(128 bytes @ 0x080039C0) -- Updating DA cache (128 bytes @ 0x080039C0) -- Read from DA cache (60 bytes @ 0x080039EC) - Data: 01 21 48 02 04 F0 77 FD 01 21 88 02 04 F0 73 FD ...  returns 0x00 (0001ms, 0712ms total)
T3B80 014:302 JLINK_Step() -- Read from DA cache (2 bytes @ 0x080039EC) -- CPU_ReadMem(4 bytes @ 0xE0001004) -- Simulated  returns 0x00 (0001ms, 0713ms total)
T3B80 014:303 JLINK_ReadReg(R15 (PC))  returns 0x080039EE (0000ms, 0713ms total)
T3B80 014:303 JLINK_ReadReg(XPSR)  returns 0x21000000 (0000ms, 0713ms total)
T3B80 014:303 JLINK_Step() -- Read from DA cache (2 bytes @ 0x080039EE) -- Simulated  returns 0x00 (0000ms, 0713ms total)
T3B80 014:303 JLINK_ReadReg(R15 (PC))  returns 0x080039F0 (0000ms, 0713ms total)
T3B80 014:303 JLINK_ReadReg(XPSR)  returns 0x01000000 (0000ms, 0713ms total)
T3B80 014:303 JLINK_SetBPEx(Addr = 0x080039F4, Type = 0xFFFFFFF2)  returns 0x0000000F (0000ms, 0713ms total)
T3B80 014:303 JLINK_SetBPEx(Addr = 0x08003A18, Type = 0xFFFFFFF2)  returns 0x00000010 (0000ms, 0713ms total)
T3B80 014:303 JLINK_Go() -- CPU_WriteMem(4 bytes @ 0xE0002000) -- CPU_WriteMem(4 bytes @ 0xE0002000) -- CPU_ReadMem(4 bytes @ 0xE0001000) -- CPU_WriteMem(4 bytes @ 0xE0002008) -- CPU_WriteMem(4 bytes @ 0xE0001004) (0003ms, 0716ms total)
T3B80 014:407 JLINK_IsHalted()  returns TRUE (0002ms, 0718ms total)
T3B80 014:409 JLINK_Halt()  returns 0x00 (0000ms, 0716ms total)
T3B80 014:409 JLINK_IsHalted()  returns TRUE (0000ms, 0716ms total)
T3B80 014:409 JLINK_IsHalted()  returns TRUE (0000ms, 0716ms total)
T3B80 014:409 JLINK_IsHalted()  returns TRUE (0000ms, 0716ms total)
T3B80 014:409 JLINK_ReadReg(R15 (PC))  returns 0x080039F4 (0000ms, 0716ms total)
T3B80 014:409 JLINK_ReadReg(XPSR)  returns 0x01000000 (0000ms, 0716ms total)
T3B80 014:409 JLINK_ClrBPEx(BPHandle = 0x0000000F)  returns 0x00 (0000ms, 0716ms total)
T3B80 014:409 JLINK_ClrBPEx(BPHandle = 0x00000010)  returns 0x00 (0000ms, 0716ms total)
